This text file was generated by ModbusSIL.exe and developed by Babak Hajari. (Caution: Do not delete this line.)

2026/01/17     09:10
Send     => 10 04 00 00 00 08 F2 8D 
Received => 10 03 10 7F FF 80 02 7F FF 7F FF 7F FC 7F FE 7F FE 7F FC 54 82 
Message  => Check CRC was OK.

2026/01/17     09:20
Send     => 10 04 00 00 00 08 F2 8D

2026/01/17     09:30
Send     => 10 04 00 00 00 08 F2 8D 
Received => 10 03 10 7F FF 80 02 7F FF 7F FF 7F FC 7F FE 7F FE 7F FC 54 82 10 03 10 7F FF 80 02 7F FF 7F FF 7F FC 7F FE 7F FE 7F FC 54 82 
Message  => Check CRC was not OK!

2026/01/17     09:40
Send  M  => 10 04 00 00 00 08 F2 8D 
Message  => The message was not received!

2026/01/18     10:26
Send  M  => 10 04 00 00 00 08 F2 8D 
Message  => The message was not received!

2026/01/18     10:27
Send  M  => 10 04 00 00 00 08 F2 8D 
Received => 10 03 10 7F FF 80 02 7F FF 7F FF 7F FC 7F FE 7F FE 7F FC 54 82 
Message  => Check CRC was OK.

2026/01/18     10:35
Send  M  => 10 04 00 00 00 08 F2 8D 
Received => 10 03 10 7F FF 80 02 7F FF 7F FF 7F FC 7F FE 7F FE 7F FC 54 82 
Message  => Check CRC was OK.

2026/01/18     06:04
Send  M  => 10 04 00 00 00 08 F2 8D 
Received => 10 03 10 7F FF 80 02 7F FF 7F FF 7F FC 7F FE 7F FE 7F FC 54 82 
Message  => Check CRC was OK.

2026/01/18     09:44
Send  M  => 10 04 00 00 00 08 F2 8D 
Received => 10 03 10 7F FF 80 02 7F FF 7F FF 7F FC 7F FE 7F FE 7F FC 54 82 
Message  => Check CRC was OK.

2026/01/19     08:14
Send  M  => 10 04 00 00 00 08 F2 8D 
Message  => The message was not received!

2026/01/19     08:18
Send  M  => 10 04 00 00 00 08 F2 8D 
Message  => The message was not received!

2026/01/19     08:18
Send  M  => 10 04 00 00 00 08 F2 8D 
Message  => The message was not received!

2026/01/19     08:18
Send  M  => 10 04 00 00 00 08 F2 8D 
Message  => The message was not received!

2026/01/19     08:19
Send  M  => 10 04 00 00 00 08 F2 8D 
Received => 10 03 10 7F FF 80 02 7F FF 7F FF 7F FC 7F FE 7F FE 7F FC 54 82 
Message  => Check CRC was OK.

2026/01/19     08:21
Send     => 10 04 00 00 00 08
Message  => The message was not received!

2026/01/19     08:22
Send  M  => 10 04 00 00 00 08 F2 8D 
Received => 10 03 10 7F FF 80 02 7F FF 7F FF 7F FC 7F FE 7F FE 7F FC 54 82 
Message  => Check CRC was OK.

2026/01/19     08:28
Send     => 23 31 30 0D
Message  => The message was not received!

2026/01/19     08:32
Send  M  => 10 04 00 00 00 08 F2 8D 
Received => 10 03 10 7F FF 80 02 7F FF 7F FF 7F FC 7F FE 7F FE 7F FC 54 82 
Message  => Check CRC was OK.

2026/02/11     02:09
Send  M  => 10 04 00 00 00 08 F2 8D 
Received => 10 03 10 7F FF 80 02 7F FF 7F FF 7F FC 7F FE 7F FE 7F FC 54 82 
Message  => Check CRC was OK.

2026/02/17     04:20
Send  M  => 0A 03 0B B7 00 70 F7 57 
Message  => The message was not received!

2026/02/17     04:21
Send  M  => 0A 03 0B B7 00 70 F7 57 
Message  => The message was not received!

2026/02/17     04:21
Send  M  => 0A 03 0B B7 00 70 F7 57 
Message  => The message was not received!

2026/02/17     04:21
Send  M  => 0A 03 0B B7 00 70 F7 57 
Message  => The message was not received!

2026/02/17     04:22
Send  M  => 0A 03 0B B7 00 70 F7 57 
Message  => The message was not received!

2026/02/17     04:22
Send  M  => 0A 03 0B B7 00 70 F7 57 
Message  => The message was not received!

2026/02/17     04:22
Send  M  => 0A 03 0B B7 00 70 F7 57 
Message  => The message was not received!

2026/02/17     04:22
Send  M  => 0A 03 0B B7 00 70 F7 57 
Message  => The message was not received!

2026/02/17     04:23
Send  M  => 0A 03 0B B7 00 70 F7 57 
Message  => The message was not received!

2026/02/17     04:23
Send  M  => 0A 03 0B B7 00 70 F7 57 
Message  => The message was not received!

2026/02/17     04:23
Send  M  => 0A 03 0B B7 00 70 F7 57 
Message  => The message was not received!

2026/02/17     04:23
Send  M  => 0A 03 0B B7 00 70 F7 57 
Message  => The message was not received!

2026/02/17     04:23
Send  M  => 0A 03 0B B7 00 70 F7 57 
Message  => The message was not received!

2026/02/17     04:23
Send  M  => 0A 03 0B B7 00 70 F7 57 
Message  => The message was not received!

2026/02/17     04:23
Send  M  => 0A 03 0B B7 00 70 F7 57 
Message  => The message was not received!

2026/02/17     04:23
Send  M  => 0A 03 0B B7 00 70 F7 57 
Message  => The message was not received!

2026/02/17     04:23
Send  M  => 0A 03 0B B7 00 70 F7 57 
Message  => The message was not received!

2026/02/17     04:23
Send  M  => 0A 03 0B B7 00 70 F7 57 
Message  => The message was not received!

2026/02/17     04:24
Send  M  => 0A 03 0B B7 00 70 F7 57 
Message  => The message was not received!

2026/02/17     04:24
Send  M  => 0A 03 0B B7 00 70 F7 57 
Message  => The message was not received!

2026/02/17     04:24
Send  M  => 0A 03 0B B7 00 70 F7 57 
Message  => The message was not received!
Received => 0A 03 0B B7 00 70 F7 57 
Received => 0A 03 0B B7 00 70 F7 57 
Received => 0A 03 0B B7 00 70 F7 57 

2026/02/17     04:28
Send  M  => 0A 03 0B B7 00 70 F7 57 
Message  => The message was not received!

2026/02/17     04:29
Send  M  => 0A 03 0B B7 00 70 F7 57 
Message  => The message was not received!

2026/02/17     04:29
Send  M  => 0A 03 0B B7 00 70 F7 57 
Message  => The message was not received!

2026/02/17     04:29
Send  M  => 0A 03 0B B7 00 70 F7 57 
Message  => The message was not received!
Received => 10 04 00 00 00 08 F2 8D

2026/05/05     12:19
Message  => Check CRC was OK. the data from  
Send  M  => 10 03 10 7f ff 80 02 7f ff 7f ff 7f fc 7f fe 7f fe 7f fc 54 82
Received => 10 04 00 00 00 08 F2 8D

2026/05/05     12:19
Message  => Check CRC was OK. the data from  
Send  M  => 10 03 10 7f ff 80 02 7f ff 7f ff 7f fc 7f fe 7f fe 7f fc 54 82
Received => 10 04 00 00 00 08 F2 8D

2026/05/05     12:20
Message  => Check CRC was OK. the data from  
Send  M  => 10 03 10 7f ff 80 02 7f ff 7f ff 7f fc 7f fe 7f fe 7f fc 54 82
Received => 13 04 00 00 00 06 73 7A

2026/05/05     12:21
Message  => Check CRC was OK. the data from  
Send  M  => 10 03 10 7f ff 80 02 7f ff 7f ff 7f fc 7f fe 7f fe 7f fc 54 82
Received => 13 04 00 00 00 06 73 7A

2026/05/05     12:21
Message  => Check CRC was OK. the data from  
Send  M  => 10 03 10 7f ff 80 02 7f ff 7f ff 7f fc 7f fe 7f fe 7f fc 54 82
Received => 10 04 00 00 00 08 F2 8D

2026/05/05     12:21
Message  => Check CRC was OK. the data from  
Send  M  => 10 03 10 7f ff 80 02 7f ff 7f ff 7f fc 7f fe 7f fe 7f fc 54 82
Received => 16 04 00 00 00 08 F2 EB

2026/05/05     12:21
Message  => Check CRC was OK. the data from  
Send  M  => 10 03 10 7f ff 80 02 7f ff 7f ff 7f fc 7f fe 7f fe 7f fc 54 82
Received => 16 04 00 00 00 08 F2 EB

2026/05/05     12:21
Message  => Check CRC was OK. the data from  
Send  M  => 10 03 10 7f ff 80 02 7f ff 7f ff 7f fc 7f fe 7f fe 7f fc 54 82
Received => 0A 03 0B B7 00 70 F7 57

2026/05/05     12:21
Message  => Check CRC was OK. the data from  
Send  M  => 10 03 10 7f ff 80 02 7f ff 7f ff 7f fc 7f fe 7f fe 7f fc 54 82
Received => 0A 03 0B B7 00 70 F7 57

2026/05/05     12:21
Message  => Check CRC was OK. the data from  
Send  M  => 10 03 10 7f ff 80 02 7f ff 7f ff 7f fc 7f fe 7f fe 7f fc 54 82
Received => 0A 03 0B B7 00 70 F7 57

2026/05/05     12:22
Message  => Check CRC was OK. the data from  
Send  M  => 10 03 10 7f ff 80 02 7f ff 7f ff 7f fc 7f fe 7f fe 7f fc 54 82
Received => 0A 03 0B B7 00 70 F7 57

2026/05/05     12:22
Message  => Check CRC was OK. the data from  
Send  M  => 10 03 10 7f ff 80 02 7f ff 7f ff 7f fc 7f fe 7f fe 7f fc 54 82
Received => 0A 03 0B B7 00 70 F7 57

2026/05/05     12:22
Message  => Check CRC was OK. the data from  
Send  M  => 10 03 10 7f ff 80 02 7f ff 7f ff 7f fc 7f fe 7f fe 7f fc 54 82
Received => 0A 03 0B B7 00 70 F7 57

2026/05/05     12:22
Message  => Check CRC was OK. the data from  
Send  M  => 10 03 10 7f ff 80 02 7f ff 7f ff 7f fc 7f fe 7f fe 7f fc 54 82
Received => 0A 03 0B B7 00 70 F7 57

2026/05/05     12:22
Message  => Check CRC was OK. the data from  
Send  M  => 10 03 10 7f ff 80 02 7f ff 7f ff 7f fc 7f fe 7f fe 7f fc 54 82
Received => 0A 03 0B B7 00 70 F7 57

2026/05/05     12:22
Message  => Check CRC was OK. the data from  
Send  M  => 10 03 10 7f ff 80 02 7f ff 7f ff 7f fc 7f fe 7f fe 7f fc 54 82
Received => 0A 03 0B B7 00 70 F7 57

2026/05/05     12:22
Message  => Check CRC was OK. the data from  
Send  M  => 10 03 10 7f ff 80 02 7f ff 7f ff 7f fc 7f fe 7f fe 7f fc 54 82
Received => 0A 03 0B B7 00 70 F7 57

2026/05/05     12:22
Message  => Check CRC was OK. the data from  
Send  M  => 10 03 10 7f ff 80 02 7f ff 7f ff 7f fc 7f fe 7f fe 7f fc 54 82
Received => 0A 03 0B B7 00 70 F7 57

2026/05/05     12:23
Message  => Check CRC was OK. the data from  
Send  M  => 10 03 10 7f ff 80 02 7f ff 7f ff 7f fc 7f fe 7f fe 7f fc 54 82
Received => 0A 03 0B B7 00 70 F7 57

2026/05/05     12:23
Message  => Check CRC was OK. the data from  
Send  M  => 10 03 10 7f ff 80 02 7f ff 7f ff 7f fc 7f fe 7f fe 7f fc 54 82
Received => 0A 03 0B B7 00 70 F7 57

2026/05/05     12:23
Message  => Check CRC was OK. the data from  
Send  M  => 10 03 10 7f ff 80 02 7f ff 7f ff 7f fc 7f fe 7f fe 7f fc 54 82
Received => 0A 03 0B B7 00 70 F7 57

2026/05/05     12:23
Message  => Check CRC was OK. the data from  
Send  M  => 10 03 10 7f ff 80 02 7f ff 7f ff 7f fc 7f fe 7f fe 7f fc 54 82
